<Qucs Dataset 0.0.19>
<indep acfrequency 100>
  +1.00000000000000000000e+00
  +1.12332403297802740916e+00
  +1.26185688306602039610e+00
  +1.41747416292680528116e+00
  +1.59228279334109235066e+00
  +1.78864952905743468392e+00
  +2.00923300256504733241e+00
  +2.25701971963392011844e+00
  +2.53536449397011187656e+00
  +2.84803586843580136545e+00
  +3.19926713779738314258e+00
  +3.59381366380462718979e+00
  +4.03701725859655446982e+00
  +4.53487850812858184213e+00
  +5.09413801481637928958e+00
  +5.72236765935021729490e+00
  +6.42807311728432129172e+00
  +7.22080901838546473925e+00
  +8.11130830789686996241e+00
  +9.11162756115489358422e+00
  +1.02353102189902607222e+01
  +1.14975699539773597024e+01
  +1.29154966501488388531e+01
  +1.45082877849593998576e+01
  +1.62975083462064418427e+01
  +1.83073828029536862516e+01
  +2.05651230834865152985e+01
  +2.31012970008316038673e+01
  +2.59502421139973620257e+01
  +2.91505306282517757666e+01
  +3.27454916287772874739e+01
  +3.67837977182863440362e+01
  +4.13201240011533741381e+01
  +4.64158883361277858626e+01
  +5.21400828799968607541e+01
  +5.85702081805666594505e+01
  +6.57933224657567876648e+01
  +7.39072203352578185331e+01
  +8.30217568131974701373e+01
  +9.32603346883219899155e+01
  +1.04761575278966461156e+02
  +1.17681195243499900016e+02
  +1.32194114846602957414e+02
  +1.48496826225446511671e+02
  +1.66810053720005868172e+02
  +1.87381742286038502243e+02
  +2.10490414451202127566e+02
  +2.36448941264540763996e+02
  +2.65608778294668638864e+02
  +2.98364724028333853312e+02
  +3.35160265093884390808e+02
  +3.76493580679246917953e+02
  +4.22924287438949875195e+02
  +4.75081016210279585721e+02
  +5.33669923120631210622e+02
  +5.99484250318941235491e+02
  +6.73415065775082211985e+02
  +7.56463327554628790494e+02
  +8.49753435908644746632e+02
  +9.54548456661834393344e+02
  +1.07226722201032339399e+03
  +1.20450354025878209541e+03
  +1.35304777457980799227e+03
  +1.51991108295293429364e+03
  +1.70735264747069118130e+03
  +1.91791026167248855927e+03
  +2.15443469003188329225e+03
  +2.42012826479438308525e+03
  +2.71858824273294158047e+03
  +3.05385550883341829831e+03
  +3.43046928631491800843e+03
  +3.85352859371053182258e+03
  +4.32876128108305601927e+03
  +4.86260158006535493769e+03
  +5.46227721768434639671e+03
  +6.13590727341317142418e+03
  +6.89261210434970053029e+03
  +7.74263682681127920659e+03
  +8.69749002617783298774e+03
  +9.77009957299225970928e+03
  +1.09749876549305572553e+04
  +1.23284673944206660963e+04
  +1.38488637139387446950e+04
  +1.55567614393047169870e+04
  +1.74752840000768483151e+04
  +1.96304065004026997485e+04
  +2.20513073990304619656e+04
  +2.47707635599171298963e+04
  +2.78255940220712400333e+04
  +3.12571584968823772215e+04
  +3.51119173421513551148e+04
  +3.94420605943765549455e+04
  +4.43062145758388360264e+04
  +4.97702356433210879914e+04
  +5.59081018251222558320e+04
  +6.28029144183425887604e+04
  +7.05480231071864254773e+04
  +7.92482898353917844361e+04
  +8.90215085445038130274e+04
  +1.00000000000000014552e+05
</indep>
<dep Pr1.v acfrequency>
  +2.18019561172531405375e-10+j1.47654854686528622186e-05
  +2.75109483892885984811e-10+j1.65864246845786720457e-05
  +3.47148795821970299175e-10+j1.86319294680249917368e-05
  +4.38052097416213468170e-10+j2.09296941502814096202e-05
  +5.52759054202750391175e-10+j2.35108284391938830845e-05
  +6.97502817121844879845e-10+j2.64102786171470500472e-05
  +8.80148730582384507005e-10+j2.96673006828683835212e-05
  +1.11062173355123370105e-09+j3.33259918429707477968e-05
  +1.40144567855676602039e-09+j3.74358875491514933153e-05
  +1.76842387508101135453e-09+j4.20526321643923767192e-05
  +2.23149783791590923539e-09+j4.72387323383717321838e-05
  +2.81583090467575097339e-09+j5.30644032921020100658e-05
  +3.55317560599519970191e-09+j5.96085194697045184448e-05
  +4.48359909099567522016e-09+j6.69596824282568962774e-05
  +5.65766036723900581837e-09+j7.52174204239276273818e-05
  +7.13915766587372671187e-09+j8.44935359356332804171e-05
  +9.00859522313529690008e-09+j9.49136193703543792856e-05
  +1.13675578622533077794e-08+j1.06618749444138273649e-04
  +1.43442310894374976400e-08+j1.19767403260154768098e-04
  +1.81003666645088821410e-08+j1.34537601944161348214e-04
  +2.28400721533740469333e-08+j1.51129320886799292135e-04
  +2.88209020840866868257e-08+j1.69767197224441127035e-04
  +3.63678533965101660891e-08+j1.90703571214304772388e-04
  +4.58910256936941577153e-08+j2.14221902679693126719e-04
  +5.79079059466751082425e-08+j2.40640608778629747685e-04
  +7.30714885947261080628e-08+j2.70317375052517966903e-04
  +9.22057590748452584721e-08+j3.03653998117830276841e-04
  +1.16350468937672086645e-07+j3.41101825559817894290e-04
  +1.46817635603842625679e-07+j3.83167866669981182267e-04
  +1.85262836919719355783e-07+j4.30421656747660165681e-04
  +2.33775174602502486025e-07+j4.83502967883000980137e-04
  +2.94990795104078692077e-07+j5.43130470591099683703e-04
  +3.72236136489681620931e-07+j6.10111463529362232569e-04
  +4.69708685171683026550e-07+j6.85352802974813885527e-04
  +5.92705064519158887573e-07+j7.69873179958793871919e-04
  +7.47908849213218824680e-07+j8.64816911169972502883e-04
  +9.43753744456159104431e-07+j9.71469430185545801057e-04
  +1.19088186406058950315e-06+j1.09127468854591119264e-03
  +1.50272200847359520917e-06+j1.22585470195295189073e-03
  +1.89621936356848022079e-06+j1.37703150578358420042e-03
  +2.39275626762732239897e-06+j1.54685181654377152879e-03
  +3.01931407402438656536e-06+j1.73761473225997635159e-03
  +3.80993923420048630197e-06+j1.95190284557493205601e-03
  +4.80759325040138880530e-06+j2.19261718898865892724e-03
  +6.06648699689185719983e-06+j2.46301648281682704703e-03
  +7.65502621265608819672e-06+j2.76676121362682322230e-03
  +9.65952815376092311815e-06+j3.10796313480014938652e-03
  +1.21889112571912439016e-05+j3.49124085213747565454e-03
  +1.53806124758930431475e-05+j3.92178223677104587086e-03
  +1.94080535521675844220e-05+j4.40541449577958564576e-03
  +2.44900614999813644776e-05+j4.94868282847760361520e-03
  +3.09027544944601780409e-05+j5.55893870394563987397e-03
  +3.89945379168738515412e-05+j6.24443891337616435733e-03
  +4.92050236404725690456e-05+j7.01445667932457279925e-03
  +6.20888977669423495695e-05+j7.87940624258683802728e-03
  +7.83460292277063401938e-05+j8.85098249503469408639e-03
  +9.88594480961035539839e-05+j9.94231738105486560764e-03
  +1.24743245804411460615e-04+j1.11681549473060959948e-02
  +1.57402981785170423008e-04+j1.25450470739051252178e-02
  +1.98611849785356245346e-04+j1.40915720598690143855e-02
  +2.50606696187162503696e-04+j1.58285783464905231710e-02
  +3.16209033912839788602e-04+j1.77794557216949603018e-02
  +3.98977509989485929539e-04+j1.99704363231254511390e-02
  +5.03399924458052721102e-04+j2.24309275995021734085e-02
  +6.35134936928270408228e-04+j2.51938790292436584628e-02
  +8.01316121384701061069e-04+j2.82961837331169099863e-02
  +1.01093413882725352039e-03+j3.17791150127596719321e-02
  +1.27531659951556010542e-03+j3.56887961002687811862e-02
  +1.60872979318140200099e-03+j4.00766987367214763682e-02
  +2.02913197653250979360e-03+j4.50001622214223004348e-02
  +2.55911438583381533815e-03+j5.05229187537105176031e-02
  +3.22707357023756767622e-03+j5.67156024953437490344e-02
  +4.06866684541625726196e-03+j6.36562078317367829872e-02
  +5.12861119824584241883e-03+j7.14304455076620048448e-02
  +6.46289391920936828057e-03+j8.01319219874228050315e-02
  +8.14146893500872215199e-03+j8.98620354687618277945e-02
  +1.02515134157496762973e-02+j1.00729439035648252188e-01
  +1.29013101099977930269e-02+j1.12848864892135539173e-01
  +1.62247947896933981948e-02+j1.26339031275871899185e-01
  +2.03867543433462611313e-02+j1.41319264754280110585e-01
  +2.55885639957557677049e-02+j1.57904367857228306038e-01
  +3.20741911533873880202e-02+j1.76197154957857815560e-01
  +4.01359432005453375947e-02+j1.96277989759289950289e-01
  +5.01190711143958689266e-02+j2.18190627262093900240e-01
  +6.24238428626435609692e-02+j2.41923762174994977370e-01
  +7.75030816591315008246e-02+j2.67388021407970855048e-01
  +9.58524978862589915884e-02+j2.94388852600134476312e-01
  +1.17990612746487116835e-01+j3.22597005643567080746e-01
  +1.44425017038689595950e-01+j3.51520172240603889779e-01
  +1.75602640910806545582e-01+j3.80481738610352837604e-01
  +2.11844219185798654514e-01+j4.08615033966394758380e-01
  +2.53267605916280669209e-01+j4.34882887349819946543e-01
  +2.99710698462241575957e-01+j4.58131199209917239212e-01
  +3.50670896671595733185e-01+j4.77180069679292884199e-01
  +4.05281291742644989018e-01+j4.90946398607890854837e-01
  +4.62340753402263160421e-01+j4.98579764075609943585e-01
  +5.20404048541730945843e-01+j4.99583501331966217673e-01
  +5.77921296778784898684e-01+j4.93890951028982227999e-01
  +6.33399872662818275160e-01+j4.81875994394350248839e-01
  +6.85553933800940762389e-01+j4.64294882214951964983e-01
</dep>
<dep V1.i acfrequency>
  -4.36039122345062736434e-12-j2.95309709373057257077e-07
  -5.50218967785771940541e-12-j3.31728493691573502324e-07
  -6.94297591643940650049e-12-j3.72638589360499813560e-07
  -8.76104194832427052663e-12-j4.18593883005628211462e-07
  -1.10551810840550084051e-11-j4.70216568783877670161e-07
  -1.39500563424368981785e-11-j5.28205572342940950123e-07
  -1.76029746116476924665e-11-j5.93346013657367598425e-07
  -2.22124346710246709190e-11-j6.66519836859415036404e-07
  -2.80289135711353180814e-11-j7.48717750983029951009e-07
  -3.53684775016202268322e-11-j8.41052643287847559794e-07
  -4.46299567583181940136e-11-j9.44774646767434588618e-07
  -5.63166180935150155904e-11-j1.06128806584204023520e-06
  -7.10635121199039878344e-11-j1.19217038939409038584e-06
  -8.96719818199135193958e-11-j1.33919364856513769685e-06
  -1.13153207344780112231e-10-j1.50434840847855242905e-06
  -1.42783153317474505286e-10-j1.68987071871266576928e-06
  -1.80171904462705961783e-10-j1.89827238740708762806e-06
  -2.27351157245066148351e-10-j2.13237498888276547299e-06
  -2.86884621788749950731e-10-j2.39534806520309556525e-06
  -3.62007333290177651092e-10-j2.69075203888322709981e-06
  -4.56801443067480930393e-10-j3.02258641773598591047e-06
  -5.76418041681733786145e-10-j3.39534394448882237129e-06
  -7.27357067930203375548e-10-j3.81407142428609526142e-06
  -9.17820513873883096403e-10-j4.28443805359386229722e-06
  -1.15815811893350214004e-09-j4.81281217557259481817e-06
  -1.46142977189452235978e-09-j5.40634750105035998181e-06
  -1.84411518149690560785e-09-j6.07307996235660540129e-06
  -2.32700937875344123658e-09-j6.82203651119635839402e-06
  -2.93635271207685238124e-09-j7.66335733339962452625e-06
  -3.70525673839438704949e-09-j8.60843313495320487216e-06
  -4.67550349205005038224e-09-j9.67005935766001973827e-06
  -5.89981590208157265039e-09-j1.08626094118219958425e-05
  -7.44472272979363195540e-09-j1.22022292705872440415e-05
  -9.39417370343366020013e-09-j1.37070560594962778461e-05
  -1.18541012903831773544e-08-j1.53974635991758755410e-05
  -1.49581769842643753025e-08-j1.72963382233994507353e-05
  -1.88750748891231847356e-08-j1.94293886037109165632e-05
  -2.38176372812117939011e-08-j2.18254937709182249370e-05
  -3.00544401694719039187e-08-j2.45170940390590368660e-05
  -3.79243872713696067981e-08-j2.75406301156716872610e-05
  -4.78551253525464458619e-08-j3.09370363308754338285e-05
  -6.03862814804877334248e-08-j3.47522946451995237791e-05
  -7.61987846840097207454e-08-j3.90380569114986473544e-05
  -9.61518650080277941054e-08-j4.38523437797731758343e-05
  -1.21329739937837150349e-07-j4.92603296563365498852e-05
  -1.53100524253121776640e-07-j5.53352242725364666144e-05
  -1.93190563075218486715e-07-j6.21592626960029839356e-05
  -2.43778225143824867445e-07-j6.98248170427495250170e-05
  -3.07612249517860848126e-07-j7.84356447354209255487e-05
  -3.88161071043351699027e-07-j8.81082899155917139995e-05
  -4.89801229999627378490e-07-j9.89736565695520793514e-05
  -6.18055089889203531171e-07-j1.11178774078912810490e-04
  -7.79890758337476958826e-07-j1.24888778267523290399e-04
  -9.84100472809451414793e-07-j1.40289133586491462490e-04
  -1.24177795533884694057e-06-j1.57588124851736760546e-04
  -1.56692058455412673611e-06-j1.77019649900693882812e-04
  -1.97718896192207114744e-06-j1.98846347621097326247e-04
  -2.49486491608822931395e-06-j2.23363098946121935075e-04
  -3.14805963570340854486e-06-j2.50900941478102536882e-04
  -3.97223699570712460199e-06-j2.81831441197380298553e-04
  -5.01213392374324956570e-06-j3.16571566929810417883e-04
  -6.32418067825679577204e-06-j3.55589114433899219046e-04
  -7.97955019978971770986e-06-j3.99408726462509094338e-04
  -1.00679984891610547608e-05-j4.48618551990043483348e-04
  -1.27026987385654070126e-05-j5.03877580584873269003e-04
  -1.60263224276940227122e-05-j5.65923674662338225747e-04
  -2.02186827765450718986e-05-j6.35582300255193416959e-04
  -2.55063319903112044123e-05-j7.13775922005375736482e-04
  -3.21745958636280454408e-05-j8.01533974734429453639e-04
  -4.05826395306501969563e-05-j9.00003244428446039054e-04
  -5.11822877166763086604e-05-j1.01045837507421029135e-03
  -6.45414714047513524402e-05-j1.13431204990687502406e-03
  -8.13733369083251398182e-05-j1.27312415663473582454e-03
  -1.02572223964916863555e-04-j1.42860891015323993210e-03
  -1.29257878384187379706e-04-j1.60263843974845637819e-03
  -1.62829378700174432198e-04-j1.79724070937523679875e-03
  -2.05030268314993494505e-04-j2.01458878071296507845e-03
  -2.58026202199955847529e-04-j2.25697729784271085285e-03
  -3.24495895793868013770e-04-j2.52678062551743793165e-03
  -4.07735086866925272499e-04-j2.82638529508560205558e-03
  -5.11771279915115341087e-04-j3.15808735714456648505e-03
  -6.41483823067747838467e-04-j3.52394309915715631121e-03
  -8.02718864010906773578e-04-j3.92555979518579949150e-03
  -1.00238142228791741323e-03-j4.36381254524187845584e-03
  -1.24847685725287100254e-03-j4.83847524349989999842e-03
  -1.55006163318262995578e-03-j5.34776042815941765607e-03
  -1.91704995772517964095e-03-j5.88777705200268976909e-03
  -2.35981225492974244079e-03-j6.45194011287134137206e-03
  -2.88850034077379200573e-03-j7.03040344481207710170e-03
  -3.51205281821613101573e-03-j7.60963477220705751536e-03
  -4.23688438371597284743e-03-j8.17230067932789468188e-03
  -5.06535211832561359235e-03-j8.69765774699639976353e-03
  -5.99421396924483106811e-03-j9.16262398419834429852e-03
  -7.01341793343191518412e-03-j9.54360139358585712888e-03
  -8.10562583485290033547e-03-j9.81892797215781765185e-03
  -9.24681506804526411047e-03-j9.97159528151220046766e-03
  -1.04080809708346176679e-02-j9.99167002663932379836e-03
  -1.15584259355756991533e-02-j9.87781902057964511510e-03
  -1.26679974532563667522e-02-j9.63751988788700761357e-03
  -1.37110786760188171213e-02-j9.28589764429903902210e-03
</dep>
<dep _net1.v acfrequency>
  +1.00000000000000000000e+00
  +1.00000000000000000000e+00
  +1.00000000000000000000e+00
  +1.00000000000000000000e+00
  +1.00000000000000000000e+00
  +1.00000000000000000000e+00
  +1.00000000000000000000e+00
  +1.00000000000000000000e+00
  +1.00000000000000000000e+00
  +1.00000000000000000000e+00
  +1.00000000000000000000e+00
  +1.00000000000000000000e+00
  +1.00000000000000000000e+00
  +1.00000000000000000000e+00
  +1.00000000000000000000e+00
  +1.00000000000000000000e+00
  +1.00000000000000000000e+00
  +1.00000000000000000000e+00
  +1.00000000000000000000e+00
  +1.00000000000000000000e+00
  +1.00000000000000000000e+00
  +1.00000000000000000000e+00
  +1.00000000000000000000e+00
  +1.00000000000000000000e+00
  +1.00000000000000000000e+00
  +1.00000000000000000000e+00
  +1.00000000000000000000e+00
  +1.00000000000000000000e+00
  +1.00000000000000000000e+00
  +1.00000000000000000000e+00
  +1.00000000000000000000e+00
  +1.00000000000000000000e+00
  +1.00000000000000000000e+00
  +1.00000000000000000000e+00
  +1.00000000000000000000e+00
  +1.00000000000000000000e+00
  +1.00000000000000000000e+00
  +1.00000000000000000000e+00
  +1.00000000000000000000e+00
  +1.00000000000000000000e+00
  +1.00000000000000000000e+00
  +1.00000000000000000000e+00
  +1.00000000000000000000e+00
  +1.00000000000000000000e+00
  +1.00000000000000000000e+00
  +1.00000000000000000000e+00
  +1.00000000000000000000e+00
  +1.00000000000000000000e+00
  +1.00000000000000000000e+00
  +1.00000000000000000000e+00
  +1.00000000000000000000e+00
  +1.00000000000000000000e+00
  +1.00000000000000000000e+00
  +1.00000000000000000000e+00
  +1.00000000000000000000e+00
  +1.00000000000000000000e+00
  +1.00000000000000000000e+00
  +1.00000000000000000000e+00
  +1.00000000000000000000e+00
  +1.00000000000000000000e+00
  +1.00000000000000000000e+00
  +1.00000000000000000000e+00
  +1.00000000000000000000e+00
  +1.00000000000000000000e+00
  +1.00000000000000000000e+00
  +1.00000000000000000000e+00
  +1.00000000000000000000e+00
  +1.00000000000000000000e+00
  +1.00000000000000000000e+00
  +1.00000000000000000000e+00
  +1.00000000000000000000e+00
  +1.00000000000000000000e+00
  +1.00000000000000000000e+00
  +1.00000000000000000000e+00
  +1.00000000000000000000e+00
  +1.00000000000000000000e+00
  +1.00000000000000000000e+00
  +1.00000000000000000000e+00
  +1.00000000000000000000e+00
  +1.00000000000000000000e+00
  +1.00000000000000000000e+00
  +1.00000000000000000000e+00
  +1.00000000000000000000e+00
  +1.00000000000000000000e+00
  +1.00000000000000000000e+00
  +1.00000000000000000000e+00
  +1.00000000000000000000e+00
  +1.00000000000000000000e+00
  +1.00000000000000000000e+00
  +1.00000000000000000000e+00
  +1.00000000000000000000e+00
  +1.00000000000000000000e+00
  +1.00000000000000000000e+00
  +1.00000000000000000000e+00
  +1.00000000000000000000e+00
  +1.00000000000000000000e+00
  +1.00000000000000000000e+00
  +1.00000000000000000000e+00
  +1.00000000000000000000e+00
  +1.00000000000000000000e+00
</dep>
<dep _net0.v acfrequency>
  +2.18019561172531405375e-10+j1.47654854686528622186e-05
  +2.75109483892885984811e-10+j1.65864246845786720457e-05
  +3.47148795821970299175e-10+j1.86319294680249917368e-05
  +4.38052097416213468170e-10+j2.09296941502814096202e-05
  +5.52759054202750391175e-10+j2.35108284391938830845e-05
  +6.97502817121844879845e-10+j2.64102786171470500472e-05
  +8.80148730582384507005e-10+j2.96673006828683835212e-05
  +1.11062173355123370105e-09+j3.33259918429707477968e-05
  +1.40144567855676602039e-09+j3.74358875491514933153e-05
  +1.76842387508101135453e-09+j4.20526321643923767192e-05
  +2.23149783791590923539e-09+j4.72387323383717321838e-05
  +2.81583090467575097339e-09+j5.30644032921020100658e-05
  +3.55317560599519970191e-09+j5.96085194697045184448e-05
  +4.48359909099567522016e-09+j6.69596824282568962774e-05
  +5.65766036723900581837e-09+j7.52174204239276273818e-05
  +7.13915766587372671187e-09+j8.44935359356332804171e-05
  +9.00859522313529690008e-09+j9.49136193703543792856e-05
  +1.13675578622533077794e-08+j1.06618749444138273649e-04
  +1.43442310894374976400e-08+j1.19767403260154768098e-04
  +1.81003666645088821410e-08+j1.34537601944161348214e-04
  +2.28400721533740469333e-08+j1.51129320886799292135e-04
  +2.88209020840866868257e-08+j1.69767197224441127035e-04
  +3.63678533965101660891e-08+j1.90703571214304772388e-04
  +4.58910256936941577153e-08+j2.14221902679693126719e-04
  +5.79079059466751082425e-08+j2.40640608778629747685e-04
  +7.30714885947261080628e-08+j2.70317375052517966903e-04
  +9.22057590748452584721e-08+j3.03653998117830276841e-04
  +1.16350468937672086645e-07+j3.41101825559817894290e-04
  +1.46817635603842625679e-07+j3.83167866669981182267e-04
  +1.85262836919719355783e-07+j4.30421656747660165681e-04
  +2.33775174602502486025e-07+j4.83502967883000980137e-04
  +2.94990795104078692077e-07+j5.43130470591099683703e-04
  +3.72236136489681620931e-07+j6.10111463529362232569e-04
  +4.69708685171683026550e-07+j6.85352802974813885527e-04
  +5.92705064519158887573e-07+j7.69873179958793871919e-04
  +7.47908849213218824680e-07+j8.64816911169972502883e-04
  +9.43753744456159104431e-07+j9.71469430185545801057e-04
  +1.19088186406058950315e-06+j1.09127468854591119264e-03
