<Qucs Dataset 0.0.19>
<indep acfrequency 100>
  +1.00000000000000000000e+00
  +1.12332403297802740916e+00
  +1.26185688306602039610e+00
  +1.41747416292680528116e+00
  +1.59228279334109235066e+00
  +1.78864952905743468392e+00
  +2.00923300256504733241e+00
  +2.25701971963392011844e+00
  +2.53536449397011187656e+00
  +2.84803586843580136545e+00
  +3.19926713779738314258e+00
  +3.59381366380462718979e+00
  +4.03701725859655446982e+00
  +4.53487850812858184213e+00
  +5.09413801481637928958e+00
  +5.72236765935021729490e+00
  +6.42807311728432129172e+00
  +7.22080901838546473925e+00
  +8.11130830789686996241e+00
  +9.11162756115489358422e+00
  +1.02353102189902607222e+01
  +1.14975699539773597024e+01
  +1.29154966501488388531e+01
  +1.45082877849593998576e+01
  +1.62975083462064418427e+01
  +1.83073828029536862516e+01
  +2.05651230834865152985e+01
  +2.31012970008316038673e+01
  +2.59502421139973620257e+01
  +2.91505306282517757666e+01
  +3.27454916287772874739e+01
  +3.67837977182863440362e+01
  +4.13201240011533741381e+01
  +4.64158883361277858626e+01
  +5.21400828799968607541e+01
  +5.85702081805666594505e+01
  +6.57933224657567876648e+01
  +7.39072203352578185331e+01
  +8.30217568131974701373e+01
  +9.32603346883219899155e+01
  +1.04761575278966461156e+02
  +1.17681195243499900016e+02
  +1.32194114846602957414e+02
  +1.48496826225446511671e+02
  +1.66810053720005868172e+02
  +1.87381742286038502243e+02
  +2.10490414451202127566e+02
  +2.36448941264540763996e+02
  +2.65608778294668638864e+02
  +2.98364724028333853312e+02
  +3.35160265093884390808e+02
  +3.76493580679246917953e+02
  +4.22924287438949875195e+02
  +4.75081016210279585721e+02
  +5.33669923120631210622e+02
  +5.99484250318941235491e+02
  +6.73415065775082211985e+02
  +7.56463327554628790494e+02
  +8.49753435908644746632e+02
  +9.54548456661834393344e+02
  +1.07226722201032339399e+03
  +1.20450354025878209541e+03
  +1.35304777457980799227e+03
  +1.51991108295293429364e+03
  +1.70735264747069118130e+03
  +1.91791026167248855927e+03
  +2.15443469003188329225e+03
  +2.42012826479438308525e+03
  +2.71858824273294158047e+03
  +3.05385550883341829831e+03
  +3.43046928631491800843e+03
  +3.85352859371053182258e+03
  +4.32876128108305601927e+03
  +4.86260158006535493769e+03
  +5.46227721768434639671e+03
  +6.13590727341317142418e+03
  +6.89261210434970053029e+03
  +7.74263682681127920659e+03
  +8.69749002617783298774e+03
  +9.77009957299225970928e+03
  +1.09749876549305572553e+04
  +1.23284673944206660963e+04
  +1.38488637139387446950e+04
  +1.55567614393047169870e+04
  +1.74752840000768483151e+04
  +1.96304065004026997485e+04
  +2.20513073990304619656e+04
  +2.47707635599171298963e+04
  +2.78255940220712400333e+04
  +3.12571584968823772215e+04
  +3.51119173421513551148e+04
  +3.94420605943765549455e+04
  +4.43062145758388360264e+04
  +4.97702356433210879914e+04
  +5.59081018251222558320e+04
  +6.28029144183425887604e+04
  +7.05480231071864254773e+04
  +7.92482898353917844361e+04
  +8.90215085445038130274e+04
  +1.00000000000000014552e+05
</indep>
<dep PhaseOfPr1 acfrequency>
  -7.19999621007550161256e-02
  -8.08792766532307333405e-02
  -9.08536194323824042307e-02
  -1.02058031792424078188e-01
  -1.14644208120875099044e-01
  -1.28782549219173370059e-01
  -1.44664468773107263155e-01
  -1.62504984066112051488e-01
  -1.82545625905763148067e-01
  -2.05057707011562090349e-01
  -2.30345992902861201879e-01
  -2.58752824686669380405e-01
  -2.90662749137845621838e-01
  -3.26507718154505133246e-01
  -3.66772927128068082503e-01
  -4.12003370060254670015e-01
  -4.62811198456854255845e-01
  -5.19883981192646893454e-01
  -5.83993973722986781105e-01
  -6.56008517241982280765e-01
  -7.36901701643906781314e-01
  -8.27767440363150086569e-01
  -9.29834120187775226007e-01
  -1.04448100466633486683e+00
  -1.17325658526125153891e+00
  -1.31789908915849562909e+00
  -1.48035936541694779223e+00
  -1.66282638012540329164e+00
  -1.86775555377003943391e+00
  -2.09790016623180397559e+00
  -2.35634603116724061778e+00
  -2.64654959404965950398e+00
  -2.97237952566435437163e+00
  -3.33816174969593681965e+00
  -3.74872763751420468026e+00
  -4.20946479563952369318e+00
  -4.72636942153726913318e+00
  -5.30609855820437292806e+00
  -5.95601966878090660629e+00
  -6.68425369344778541603e+00
  -7.49970604078245450808e+00
  -8.41207769480710254584e+00
  -9.43184568779983223408e+00
  -1.05701985470517350052e+01
  -1.18389080398360384550e+01
  -1.32501139193752131007e+01
  -1.48159941307454268156e+01
  -1.65482904257997276432e+01
  -1.84576607999053834419e+01
  -2.05528388510483139839e+01
  -2.28396000929758429265e+01
  -2.53195702112546499052e+01
  -2.79889616034109067755e+01
  -3.08373878618689296616e+01
  -3.38469673320975488195e+01
  -3.69919621995230585298e+01
  -4.02391790537637064062e+01
  -4.35492590773656758074e+01
  -4.68788157796718749637e+01
  -5.01831776768580937187e+01
  -5.34193321861326779754e+01
  -5.65486104940796110441e+01
  -5.95387256440971768257e+01
  -6.23649464379618265752e+01
  -6.50103899339713393601e+01
  -6.74655777941990493218e+01
  -6.97274891345616794069e+01
  -7.17983542969735140105e+01
  -7.36843936260472958111e+01
  -7.53946424635053631391e+01
  -7.69399412482022597715e+01
  -7.83321202797853004540e+01
  -7.95833758375957387443e+01
  -8.07058160954431684786e+01
  -8.17111477298940798164e+01
  -8.26104733285310999236e+01
  -8.34141725425049713749e+01
  -8.41318442801826051891e+01
  -8.47722918460878105407e+01
  -8.53435371412434875538e+01
  -8.58528535918455588671e+01
  -8.63068103149898036008e+01
  -8.67113222228556139726e+01
  -8.70717024126774532533e+01
  -8.73927143983982404052e+01
  -8.76786226107015806974e+01
  -8.79332402086590576573e+01
  -8.81599736750786320272e+01
  -8.83618639601205444478e+01
  -8.85416241324874420116e+01
  -8.87016736230581983591e+01
  -8.88441692230403532449e+01
  -8.89710330425821069866e+01
  -8.90839776570165895464e+01
  -8.91845286740989990903e+01
  -8.92740449520424874663e+01
  -8.93537366885596640032e+01
  -8.94246815880009648936e+01
  -8.94878392987668149772e+01
  -8.95440642976021763388e+01
</dep>
<dep Pr1.v acfrequency>
  +9.99998420865789494627e-01-j1.25663507703734338844e-03
  +9.99998007359451102083e-01-j1.41160779900930712094e-03
  +9.99997485574119937546e-01-j1.58569213837339378047e-03
  +9.99996827156485412758e-01-j1.78124491513236850836e-03
  +9.99995996328898573147e-01-j2.00091355936725650427e-03
  +9.99994947945359591301e-01-j2.24767193271468599877e-03
  +9.99993625038511968484e-01-j2.52486056009196225755e-03
  +9.99991955724395586991e-01-j2.83623181246977443953e-03
  +9.99989849296841204485e-01-j3.18600064689645440241e-03
  +9.99987191299397060185e-01-j3.57890158290922110948e-03
  +9.99983837307191536503e-01-j4.02025267563095416168e-03
  +9.99979605081148359425e-01-j4.51602733594215401819e-03
  +9.99974264668708201498e-01-j5.07293494778742522916e-03
  +9.99967525913913468649e-01-j5.69851134246604495992e-03
  +9.99959022699403510259e-01-j6.40122031001004367784e-03
  +9.99948293066018067954e-01-j7.19056745847917230113e-03
  +9.99934754132869696441e-01-j8.07722787267563420432e-03
  +9.99917670460076735139e-01-j9.07318917305909716786e-03
  +9.99896114142997283203e-01-j1.01919117309462962245e-02
  +9.99868914482237025609e-01-j1.14485079530053362323e-02
  +9.99834594514790508946e-01-j1.28599426995219048853e-02
  +9.99791290989714087623e-01-j1.44452570359618823193e-02
  +9.99736653491197446719e-01-j1.62258176194266072467e-02
  +9.99667717309150050120e-01-j1.82255940661300713801e-02
  +9.99580743279168237869e-01-j2.04714665970422565744e-02
  +9.99471016095681230595e-01-j2.29935660641789989256e-02
  +9.99332590467588821603e-01-j2.58256480446719220712e-02
  +9.99157971845410108891e-01-j2.90055019466432945086e-02
  +9.98937715201492659745e-01-j3.25753948481693617056e-02
  +9.98659921380322113116e-01-j3.65825478742382026454e-02
  +9.98309605744147288142e-01-j4.10796400070939649041e-02
  +9.97867908125227520699e-01-j4.61253299067869992900e-02
  +9.97311106409666581207e-01-j5.17847800187782938974e-02
  +9.96609388462740608539e-01-j5.81301581854277785166e-02
  +9.95725328781987162330e-01-j6.52410791142417761934e-02
  +9.94612007761032868025e-01-j7.32049300156755039515e-02
  +9.93210703808937611647e-01-j8.21169997521369460225e-02
  +9.91448083671705115982e-01-j9.20802967817155315622e-02
  +9.89232817311428980211e-01-j1.03204895550172690011e-01
  +9.86451555722070660970e-01-j1.15606591228948132888e-01
  +9.82964241004768202181e-01-j1.29404566807698545583e-01
  +9.78598779615737268678e-01-j1.44717684304050742128e-01
  +9.73145218474832818245e-01-j1.61658907067945833980e-01
  +9.66349741388642380358e-01-j1.80327254475707049464e-01
  +9.57909075913648822009e-01-j2.00796609024924299636e-01
  +9.47466293636561207592e-01-j2.23100685922654196069e-01
  +9.34609513012666481835e-01-j2.47213614509583234913e-01
  +9.18875651990117225942e-01-j2.73025984422461509560e-01
  +8.99762035052530273482e-01-j3.00317024709988167341e-01
  +8.76749123133875429836e-01-j3.28724958312957893369e-01
  +8.49337526964911604388e-01-j3.57719572086906634212e-01
  +8.17101244119237124508e-01-j3.86583498067405884058e-01
  +7.79756150341014531158e-01-j4.14411023437330494623e-01
  +7.37237895158111555816e-01-j4.40134276216870956588e-01
  +6.89777050088749343892e-01-j4.62584771971162378446e-01
  +6.37953524120140613718e-01-j4.80592160966899051289e-01
  +5.82710068061980557275e-01-j4.93111594511001671837e-01
  +5.25309385008683293883e-01-j4.99359024180481059219e-01
  +4.67231980347657949171e-01-j4.98925101481238086887e-01
  +4.10029224349122978222e-01-j4.91838651926401082548e-01
  +3.55161124998810806552e-01-j4.78562117481513449313e-01
  +3.03853748937031431510e-01-j4.59920262865143758546e-01
  +2.57004264822089323328e-01-j4.36981776147869482863e-01
  +2.15145808795470294683e-01-j4.10923459726033724060e-01
  +1.78467302903183078211e-01-j3.82905634194179222973e-01
  +1.46871680722696823507e-01-j3.53977951466453666374e-01
  +1.20052295363167874087e-01-j3.25022678810575560426e-01
  +9.75701467189690196946e-02-j2.96732561725550902931e-01
  +7.89206157851245065915e-02-j2.69614821901951962069e-01
  +6.35845871204081397599e-02-j2.44011449323869561434e-01
  +5.10634747852363873877e-02-j2.20127227593712088138e-01
  +4.09003326844872214241e-02-j1.98059323109985113698e-01
  +3.26902734902989808297e-02-j1.77824687570169587270e-01
  +2.60834271972025695530e-02-j1.59383443377443700939e-01
  +2.07831642062077416588e-02-j1.42657717252820032128e-01
  +1.65416440350625131017e-02-j1.27546140857651174594e-01
  +1.31541238276512012506e-02-j1.13934599020569779504e-01
  +1.04529516574565876919e-02-j1.01703920568990163753e-01
  +8.30179339575039601518e-03-j9.07351840366495965284e-02
  +6.59038296700652139609e-03-j8.09132240079130093946e-02
  +5.22991832105993304652e-03-j7.21288172328853199877e-02
  +4.14912386294958267230e-03-j6.42799240363543522570e-02
  +3.29094325327527808742e-03-j5.72722703040398073426e-02
  +2.60979854958255609240e-03-j5.10194815841277724000e-02
  +2.06934142813505013089e-03-j4.54429230374637505019e-02
  +1.64062221477228632749e-03-j4.04713549751016185563e-02
  +1.30060784913013237525e-03-j3.60404809672805748200e-02
  +1.03098773981223396264e-03-j3.20924415414687788650e-02
  +8.17214993390140138733e-04-j2.85752892031685030994e-02
  +6.47738754020690419774e-04-j2.54424682082385646142e-02
  +5.13390893558883531535e-04-j2.26523138630316152320e-02
  +4.06896853044873794969e-04-j2.01675801224603032380e-02
  +3.22486027525215534443e-04-j1.79550001472366070610e-02
  +2.55581765652643775645e-04-j1.59848817203540709275e-02
  +2.02554921435135385594e-04-j1.42307376105013545786e-02
  +1.60528058788618482747e-04-j1.26689498195769970762e-02
  +1.27219979288274145836e-04-j1.12784659579724770573e-02
  +1.00822319656537192972e-04-j1.00405256095682706569e-02
  +7.99016358306123020703e-05-j8.93841437611861237833e-03
  +6.33217298810724501254e-05-j7.95724325627898167179e-03
</dep>
<dep V1.i acfrequency>
  -1.99999684173157894762e-02+j2.51327015412527998706e-05
  -1.99999601471890185722e-02+j2.82321559801346211316e-05
  -1.99999497114823968080e-02+j3.17138427674678791330e-05
  -1.99999365431297072837e-02+j3.56248983024443077738e-05
  -1.99999199265779720180e-02+j4.00182711874919050388e-05
  -1.99998989589071918260e-02+j4.49534386550709541552e-05
  -1.99998725007702431167e-02+j5.04972112018720054039e-05
  -1.99998391144879106296e-02+j5.67246362495055223008e-05
  -1.99997969859368289469e-02+j6.37200129380843804938e-05
  -1.99997438259879416200e-02+j7.15780316582481646037e-05
  -1.99996767461438282321e-02+j8.04050535121447751408e-05
  -1.99995921016229670497e-02+j9.03205467182033316931e-05
  -1.99994852933741626422e-02+j1.01458698956058412932e-04
  -1.99993505182782735363e-02+j1.13970226849335887209e-04
  -1.99991804539880677072e-02+j1.28024406200299978309e-04
  -1.99989658613203627469e-02+j1.43811349169631341738e-04
  -1.99986950826573951778e-02+j1.61544557453652259937e-04
  -1.99983534092015337313e-02+j1.81463783461399685848e-04
  -1.99979222828599485784e-02+j2.03838234619002633963e-04
  -1.99973782896447419000e-02+j2.28970159060106691036e-04
  -1.99966918902958097626e-02+j2.57198853990336928632e-04
  -1.99958258197942793932e-02+j2.88905140719108999292e-04
  -1.99947330698239493507e-02+j3.24516352388393158890e-04
  -1.99933543461829968391e-02+j3.64511881322471253952e-04
  -1.99916148655833667003e-02+j4.09429331940880381069e-04
  -1.99894203219136250282e-02+j4.59871321283555900550e-04
  -1.99866518093517776811e-02+j5.16512960893389383443e-04
  -1.99831594369082043983e-02+j5.80110038932879490403e-04
  -1.99787543040298512520e-02+j6.51507896963443577931e-04
  -1.99731984276064443440e-02+j7.31650957484730746216e-04
  -1.99661921148829475670e-02+j8.21592800141934809233e-04
  -1.99573581625045529120e-02+j9.22506598135752753365e-04
  -1.99462221281933339834e-02+j1.03569560037558572319e-03
  -1.99321877692548096728e-02+j1.16260316370853100665e-03
  -1.99145065756397461609e-02+j1.30482158228484301787e-03
  -1.98922401552206612463e-02+j1.46409860031349037257e-03
  -1.98642140761787523717e-02+j1.64233999504273531223e-03
  -1.98289616734341027360e-02+j1.84160593563428842678e-03
  -1.97846563462285816859e-02+j2.06409791100342632220e-03
  -1.97290311144414157174e-02+j2.31213182457898347444e-03
  -1.96592848200953622395e-02+j2.58809133615398034856e-03
  -1.95719755923147512022e-02+j2.89435368608101373233e-03
  -1.94629043694966551159e-02+j3.23317814135891390404e-03
  -1.93269948277728503827e-02+j3.60654508951413488305e-03
  -1.91581815182729764402e-02+j4.01593218049847711093e-03
  -1.89493258727312235967e-02+j4.46201371845308947250e-03
  -1.86921902602533301918e-02+j4.94427229019167580049e-03
  -1.83775130398023435474e-02+j5.46051968844923213409e-03
  -1.79952407010506090779e-02+j6.00634049419975640793e-03
  -1.75349824626775049885e-02+j6.57449916625916369606e-03
  -1.69867505392982294510e-02+j7.15439144173813518224e-03
  -1.63420248823847417963e-02+j7.73166996134811573826e-03
  -1.55951230068202897905e-02+j8.28822046874660989246e-03
  -1.47447579031622314633e-02+j8.80268552433742176855e-03
  -1.37955410017749861146e-02+j9.25169543942324854036e-03
  -1.27590704824028129682e-02+j9.61184321933798019311e-03
  -1.16542013612396105904e-02+j9.86223189022003392246e-03
  -1.05061877001736657389e-02+j9.98718048360962111498e-03
  -9.34463960695315967731e-03+j9.97850202962476118262e-03
  -8.20058448698245991138e-03+j9.83677303852802456530e-03
  -7.10322249997621599227e-03+j9.57124234963026981893e-03
  -6.07707497874062849141e-03+j9.19840525730287322803e-03
  -5.14008529644178601553e-03+j8.73963552295738826947e-03
  -4.30291617590940634469e-03+j8.21846919452067295464e-03
  -3.56934605806366166830e-03+j7.65811268388358421660e-03
  -2.93743361445393622727e-03+j7.07955902932907304992e-03
  -2.40104590726335741235e-03+j6.50045357621151145139e-03
  -1.95140293437938037654e-03+j5.93465123451101823210e-03
  -1.57841231570249036602e-03+j5.39229643803903861687e-03
  -1.27169174240816286459e-03+j4.88022898647739143685e-03
  -1.02126949570472791255e-03+j4.40254455187424204032e-03
  -8.18006653689744506544e-04+j3.96118646219970321071e-03
  -6.53805469805979417100e-04+j3.55649375140339217907e-03
  -5.21668543944051347691e-04+j3.18766886754887415756e-03
  -4.15663284124154848356e-04+j2.85315434505640109358e-03
  -3.30832880701250296729e-04+j2.55092281715302380413e-03
  -2.63082476553024025012e-04+j2.27869198041139552069e-03
  -2.09059033149131733237e-04+j2.03407841137980341384e-03
  -1.66035867915007934398e-04+j1.81470368073299186985e-03
  -1.31807659340130406238e-04+j1.61826448015826049147e-03
  -1.04598366421198671230e-04+j1.44257634465770655588e-03
  -8.29824772589916713353e-05+j1.28559848072708703647e-03
  -6.58188650655055557852e-05+j1.14544540608079608614e-03
  -5.21959709916511218480e-05+j1.02038963168255545667e-03
  -4.13868285627010001784e-05+j9.08858460749275231215e-04
  -3.28124442954457338681e-05+j8.09427099502032197653e-04
  -2.60121569826026484537e-05+j7.20809619345611570125e-04
  -2.06197547962446818277e-05+j6.41848830829375551280e-04
  -1.63442998678028008773e-05+j5.71505784063370148723e-04
  -1.29547750804138080567e-05+j5.08849364164771274938e-04
  -1.02678178711776705629e-05+j4.53046277260632339334e-04
  -8.13793706089747610267e-06+j4.03351602449206062592e-04
  -6.44972055050431119708e-06+j3.59100002944732132545e-04
  -5.11163531305287602112e-06+j3.19697634407081364340e-04
  -4.05109842870270771189e-06+j2.84614752210027104583e-04
  -3.21056117577236963800e-06+j2.53378996391539980555e-04
  -2.54439958576548254404e-06+j2.25569319159449555240e-04
  -2.01644639313074411355e-06+j2.00810512191365380611e-04
  -1.59803271661224587200e-06+j1.78768287522372277924e-04
  -1.26643459762144911262e-06+j1.59144865125579633436e-04
</dep>
<dep _net1.v acfrequency>
  +1.00000000000000000000e+00
  +1.00000000000000000000e+00
  +1.00000000000000000000e+00
  +1.00000000000000000000e+00
  +1.00000000000000000000e+00
  +1.00000000000000000000e+00
  +1.00000000000000000000e+00
  +1.00000000000000000000e+00
  +1.00000000000000000000e+00
  +1.00000000000000000000e+00
  +1.00000000000000000000e+00
  +1.00000000000000000000e+00
  +1.00000000000000000000e+00
  +1.00000000000000000000e+00
  +1.00000000000000000000e+00
  +1.00000000000000000000e+00
  +1.00000000000000000000e+00
  +1.00000000000000000000e+00
  +1.00000000000000000000e+00
  +1.00000000000000000000e+00
  +1.00000000000000000000e+00
  +1.00000000000000000000e+00
  +1.00000000000000000000e+00
  +1.00000000000000000000e+00
  +1.00000000000000000000e+00
  +1.00000000000000000000e+00
  +1.00000000000000000000e+00
  +1.00000000000000000000e+00
  +1.00000000000000000000e+00
  +1.00000000000000000000e+00
  +1.00000000000000000000e+00
  +1.00000000000000000000e+00
  +1.00000000000000000000e+00
  +1.00000000000000000000e+00
  +1.00000000000000000000e+00
  +1.00000000000000000000e+00
  +1.00000000000000000000e+00
  +1.00000000000000000000e+00
  +1.00000000000000000000e+00
  +1.00000000000000000000e+00
  +1.00000000000000000000e+00
  +1.00000000000000000000e+00
  +1.00000000000000000000e+00
  +1.00000000000000000000e+00
  +1.00000000000000000000e+00
  +1.00000000000000000000e+00
  +1.00000000000000000000e+00
  +1.00000000000000000000e+00
  +1.00000000000000000000e+00
  +1.00000000000000000000e+00
  +1.00000000000000000000e+00
  +1.00000000000000000000e+00
  +1.00000000000000000000e+00
  +1.00000000000000000000e+00
  +1.00000000000000000000e+00
  +1.00000000000000000000e+00
  +1.00000000000000000000e+00
  +1.00000000000000000000e+00
  +1.00000000000000000000e+00
  +1.00000000000000000000e+00
  +1.00000000000000000000e+00
  +1.00000000000000000000e+00
  +1.00000000000000000000e+00
  +1.00000000000000000000e+00
  +1.00000000000000000000e+00
  +1.00000000000000000000e+00
  +1.00000000000000000000e+00
  +1.00000000000000000000e+00
  +1.00000000000000000000e+00
  +1.00000000000000000000e+00
  +1.00000000000000000000e+00
  +1.00000000000000000000e+00
  +1.00000000000000000000e+00
  +1.00000000000000000000e+00
