<Qucs Dataset 0.0.19>
<indep acfrequency 19>
  +1.00000000000000000000e+00
  +5.55650000000000000000e+03
  +1.11120000000000000000e+04
  +1.66675000000000000000e+04
  +2.22230000000000000000e+04
  +2.77785000000000000000e+04
  +3.33340000000000000000e+04
  +3.88895000000000000000e+04
  +4.44450000000000000000e+04
  +5.00005000000000000000e+04
  +5.55560000000000000000e+04
  +6.11115000000000000000e+04
  +6.66670000000000000000e+04
  +7.22225000000000000000e+04
  +7.77780000000000000000e+04
  +8.33335000000000000000e+04
  +8.88890000000000000000e+04
  +9.44445000000000000000e+04
  +1.00000000000000000000e+05
</indep>
<dep Pr1.v acfrequency>
  +0.00000000000000000000e+00
  +0.00000000000000000000e+00
  +0.00000000000000000000e+00
  +0.00000000000000000000e+00
  +0.00000000000000000000e+00
  +0.00000000000000000000e+00
  +0.00000000000000000000e+00
  +0.00000000000000000000e+00
  +0.00000000000000000000e+00
  +0.00000000000000000000e+00
  +0.00000000000000000000e+00
  +0.00000000000000000000e+00
  +0.00000000000000000000e+00
  +0.00000000000000000000e+00
  +0.00000000000000000000e+00
  +0.00000000000000000000e+00
  +0.00000000000000000000e+00
  +0.00000000000000000000e+00
  +0.00000000000000000000e+00
</dep>
<dep V1.i acfrequency>
  +0.00000000000000000000e+00-j2.95309714916869844466e-07
  +0.00000000000000000000e+00-j3.84170964885962966384e-03
  +0.00000000000000000000e+00+j2.54163744829351669410e-03
  +0.00000000000000000000e+00+j1.18471684987554270845e-03
  +0.00000000000000000000e+00+j8.03900388543356096693e-04
  +0.00000000000000000000e+00+j6.15963854083111496743e-04
  +0.00000000000000000000e+00+j5.01793721755282870825e-04
  +0.00000000000000000000e+00+j4.24371652891697621370e-04
  +0.00000000000000000000e+00+j3.68138162441796943335e-04
  +0.00000000000000000000e+00+j3.25319707064914559469e-04
  +0.00000000000000000000e+00+j2.91567804289778016117e-04
  +0.00000000000000000000e+00+j2.64247054156889916304e-04
  +0.00000000000000000000e+00+j2.41661630264999345704e-04
  +0.00000000000000000000e+00+j2.22668211862141413385e-04
  +0.00000000000000000000e+00+j2.06466609945797060837e-04
  +0.00000000000000000000e+00+j1.92479331879740335302e-04
  +0.00000000000000000000e+00+j1.80278763844163590667e-04
  +0.00000000000000000000e+00+j1.69541287573712044388e-04
  +0.00000000000000000000e+00+j1.60017344514742129290e-04
</dep>
<dep _net1.v acfrequency>
  -1.85548566183306899742e-08
  -1.34123761720446110779e+00
  +1.77453962640232676407e+00
  +1.24069461568021788267e+00
  +1.12249597703564774065e+00
  +1.07508768425547396319e+00
  +1.05097533234218221132e+00
  +1.03695185801439682116e+00
  +1.02804853634225379366e+00
  +1.02203222200313681434e+00
  +1.01777177764248172309e+00
  +1.01464230619495165975e+00
  +1.01227493107608523815e+00
  +1.01044017978934586033e+00
  +1.00898908173352630513e+00
  +1.00782144064095358083e+00
  +1.00686781874508435308e+00
  +1.00607884512958256629e+00
  +1.00541862794892766786e+00
</dep>
<dep _net0.v acfrequency>
  +1.00000000000000000000e+00
  +1.00000000000000000000e+00
  +1.00000000000000000000e+00
  +1.00000000000000000000e+00
  +1.00000000000000000000e+00
  +9.99999999999999888978e-01
  +9.99999999999999888978e-01
  +9.99999999999999888978e-01
  +1.00000000000000000000e+00
  +1.00000000000000000000e+00
  +1.00000000000000000000e+00
  +1.00000000000000022204e+00
  +1.00000000000000000000e+00
  +1.00000000000000000000e+00
  +1.00000000000000000000e+00
  +1.00000000000000000000e+00
  +1.00000000000000000000e+00
  +9.99999999999999888978e-01
  +1.00000000000000000000e+00
</dep>
