<Qucs Dataset 0.0.19>
<indep acfrequency 19>
  +1.00000000000000000000e+09
  +1.50000000000000000000e+09
  +2.00000000000000000000e+09
  +2.50000000000000000000e+09
  +3.00000000000000000000e+09
  +3.50000000000000000000e+09
  +4.00000000000000000000e+09
  +4.50000000000000000000e+09
  +5.00000000000000000000e+09
  +5.50000000000000000000e+09
  +6.00000000000000000000e+09
  +6.50000000000000000000e+09
  +7.00000000000000000000e+09
  +7.50000000000000000000e+09
  +8.00000000000000000000e+09
  +8.50000000000000000000e+09
  +9.00000000000000000000e+09
  +9.50000000000000000000e+09
  +1.00000000000000000000e+10
</indep>
<dep V1.i acfrequency>
  +0.00000000000000000000e+00+j1.59154751608576676753e-08
  +0.00000000000000000000e+00+j1.06103357213937144908e-08
  +0.00000000000000000000e+00+j7.95773758010717803903e-09
  +0.00000000000000000000e+00+j6.36623553878995027470e-09
  +0.00000000000000000000e+00+j5.30519628231098072639e-09
  +0.00000000000000000000e+00+j4.54724613520920414781e-09
  +0.00000000000000000000e+00+j3.97881194659452061628e-09
  +0.00000000000000000000e+00+j3.53679752152888758697e-09
  +0.00000000000000000000e+00+j3.18300408253666665023e-09
  +0.00000000000000000000e+00+j2.89378476737116982415e-09
  +0.00000000000000000000e+00+j2.65254129772471608641e-09
  +0.00000000000000000000e+00+j2.44858711085128989611e-09
  +0.00000000000000000000e+00+j2.27373675443482198896e-09
  +0.00000000000000000000e+00+j2.12185113923827437541e-09
  +0.00000000000000000000e+00+j1.98951966012995638836e-09
  +0.00000000000000000000e+00+j1.87219484360096905862e-09
  +0.00000000000000000000e+00+j1.76851244759863562305e-09
  +0.00000000000000000000e+00+j1.67528924066673428919e-09
  +0.00000000000000000000e+00+j1.59161572810348199585e-09
</dep>
<dep _net1.v acfrequency>
  +1.00000000005389422242e+00
  +1.00000000002395306176e+00
  +1.00000000001347344458e+00
  +1.00000000000862310223e+00
  +1.00000000000598832095e+00
  +1.00000000000439959180e+00
  +1.00000000000336841666e+00
  +1.00000000000266142663e+00
  +1.00000000000215560902e+00
  +1.00000000000178168591e+00
  +1.00000000000149702473e+00
  +1.00000000000127564626e+00
  +1.00000000000110000897e+00
  +1.00000000000095812247e+00
  +1.00000000000084221519e+00
  +1.00000000000074584783e+00
  +1.00000000000066546768e+00
  +1.00000000000059707794e+00
  +1.00000000000053890226e+00
</dep>
<dep _net0.v acfrequency>
  +1.00000000000000000000e+00
  +1.00000000000000000000e+00
  +9.99999999999999888978e-01
  +1.00000000000000000000e+00
  +1.00000000000000000000e+00
  +1.00000000000000000000e+00
  +1.00000000000000000000e+00
  +1.00000000000000000000e+00
  +9.99999999999999888978e-01
  +1.00000000000000000000e+00
  +1.00000000000000000000e+00
  +1.00000000000000000000e+00
  +1.00000000000000000000e+00
  +1.00000000000000000000e+00
  +1.00000000000000000000e+00
  +1.00000000000000000000e+00
  +1.00000000000000000000e+00
  +9.99999999999999888978e-01
  +9.99999999999999888978e-01
</dep>
