<Qucs Dataset 0.0.19>
<indep acfrequency 100>
  +1.00000000000000000000e+00
  +1.12332403297802740916e+00
  +1.26185688306602039610e+00
  +1.41747416292680528116e+00
  +1.59228279334109235066e+00
  +1.78864952905743468392e+00
  +2.00923300256504733241e+00
  +2.25701971963392011844e+00
  +2.53536449397011187656e+00
  +2.84803586843580136545e+00
  +3.19926713779738314258e+00
  +3.59381366380462718979e+00
  +4.03701725859655446982e+00
  +4.53487850812858184213e+00
  +5.09413801481637928958e+00
  +5.72236765935021729490e+00
  +6.42807311728432129172e+00
  +7.22080901838546473925e+00
  +8.11130830789686996241e+00
  +9.11162756115489358422e+00
  +1.02353102189902607222e+01
  +1.14975699539773597024e+01
  +1.29154966501488388531e+01
  +1.45082877849593998576e+01
  +1.62975083462064418427e+01
  +1.83073828029536862516e+01
  +2.05651230834865152985e+01
  +2.31012970008316038673e+01
  +2.59502421139973620257e+01
  +2.91505306282517757666e+01
  +3.27454916287772874739e+01
  +3.67837977182863440362e+01
  +4.13201240011533741381e+01
  +4.64158883361277858626e+01
  +5.21400828799968607541e+01
  +5.85702081805666594505e+01
  +6.57933224657567876648e+01
  +7.39072203352578185331e+01
  +8.30217568131974701373e+01
  +9.32603346883219899155e+01
  +1.04761575278966461156e+02
  +1.17681195243499900016e+02
  +1.32194114846602957414e+02
  +1.48496826225446511671e+02
  +1.66810053720005868172e+02
  +1.87381742286038502243e+02
  +2.10490414451202127566e+02
  +2.36448941264540763996e+02
  +2.65608778294668638864e+02
  +2.98364724028333853312e+02
  +3.35160265093884390808e+02
  +3.76493580679246917953e+02
  +4.22924287438949875195e+02
  +4.75081016210279585721e+02
  +5.33669923120631210622e+02
  +5.99484250318941235491e+02
  +6.73415065775082211985e+02
  +7.56463327554628790494e+02
  +8.49753435908644746632e+02
  +9.54548456661834393344e+02
  +1.07226722201032339399e+03
  +1.20450354025878209541e+03
  +1.35304777457980799227e+03
  +1.51991108295293429364e+03
  +1.70735264747069118130e+03
  +1.91791026167248855927e+03
  +2.15443469003188329225e+03
  +2.42012826479438308525e+03
  +2.71858824273294158047e+03
  +3.05385550883341829831e+03
  +3.43046928631491800843e+03
  +3.85352859371053182258e+03
  +4.32876128108305601927e+03
  +4.86260158006535493769e+03
  +5.46227721768434639671e+03
  +6.13590727341317142418e+03
  +6.89261210434970053029e+03
  +7.74263682681127920659e+03
  +8.69749002617783298774e+03
  +9.77009957299225970928e+03
  +1.09749876549305572553e+04
  +1.23284673944206660963e+04
  +1.38488637139387446950e+04
  +1.55567614393047169870e+04
  +1.74752840000768483151e+04
  +1.96304065004026997485e+04
  +2.20513073990304619656e+04
  +2.47707635599171298963e+04
  +2.78255940220712400333e+04
  +3.12571584968823772215e+04
  +3.51119173421513551148e+04
  +3.94420605943765549455e+04
  +4.43062145758388360264e+04
  +4.97702356433210879914e+04
  +5.59081018251222558320e+04
  +6.28029144183425887604e+04
  +7.05480231071864254773e+04
  +7.92482898353917844361e+04
  +8.90215085445038130274e+04
  +1.00000000000000014552e+05
</indep>
<dep PhaseOfPr1 acfrequency>
  +8.99991539999866887456e+01
  +8.99990496678464211300e+01
  +8.99989324690434671083e+01
  +8.99988008168132722631e+01
  +8.99986529286923087056e+01
  +8.99984868024089053051e+01
  +8.99983001887533333729e+01
  +8.99980905611378858566e+01
  +8.99978550813844009326e+01
  +8.99975905612953113177e+01
  +8.99972934194884572889e+01
  +8.99969596329124073009e+01
  +8.99965846823717043890e+01
  +8.99961634913237702449e+01
  +8.99956903571728901170e+01
  +8.99951588740300678637e+01
  +8.99945618459898781794e+01
  +8.99938911896845752381e+01
  +8.99931378248270590348e+01
  +8.99922915512546097716e+01
  +8.99913409107882102944e+01
  +8.99902730320532384667e+01
  +8.99890734561467979802e+01
  +8.99877259407836049832e+01
  +8.99862122402547868205e+01
  +8.99845118582073268954e+01
  +8.99826017698767799402e+01
  +8.99804561099683724024e+01
  +8.99780458219261873865e+01
  +8.99753382637683358780e+01
  +8.99722967650640157444e+01
  +8.99688801289072586087e+01
  +8.99650420719766685806e+01
  +8.99607305948128868067e+01
  +8.99558872734203873733e+01
  +8.99504464620587356194e+01
  +8.99443343956710208431e+01
  +8.99374681787108158915e+01
  +8.99297546451482077146e+01
  +8.99210890720403455134e+01
  +8.99113537261647195464e+01
  +8.99004162196606841917e+01
  +8.98881276461964375812e+01
  +8.98743204636084840331e+01
  +8.98588060818131140195e+01
  +8.98413721055283645001e+01
  +8.98217791691606208815e+01
  +8.97997572849792931038e+01
  +8.97750016038282439013e+01
  +8.97471674577997760025e+01
  +8.97158645132249290555e+01
  +8.96806498052098959306e+01
  +8.96410193447500063257e+01
  +8.95963978758357058041e+01
  +8.95461261974816551401e+01
  +8.94894452309717394201e+01
  +8.94254756701635500349e+01
  +8.93531915469805113617e+01
  +8.92713852873694264645e+01
  +8.91786206828540883862e+01
  +8.90731684239293741712e+01
  +8.89529160337020954330e+01
  +8.88152395031747232679e+01
  +8.86568163985012773765e+01
  +8.84733473177606128957e+01
  +8.82591297083779693367e+01
  +8.80063858187753140783e+01
  +8.77041647862825897164e+01
  +8.73364716267608542921e+01
  +8.68789109007909985394e+01
  +8.62922712697158260653e+01
  +8.55092365469576805026e+01
  +8.44038164972514977080e+01
  +8.27102422872379037244e+01
  +7.97583305130899447022e+01
  +7.32705600111947745745e+01
  +4.93412012263113197719e+01
  -4.44971272948939073899e+01
  -7.23495783872365478828e+01
  -7.94040711781183432549e+01
  -8.25242534542889814020e+01
  -8.42888306166381653384e+01
  -8.54306890352882533080e+01
  -8.62349173580208940848e+01
  -8.68350125819326166265e+01
  -8.73016920317240447957e+01
  -8.76758862535791507753e+01
  -8.79829339504370864233e+01
  -8.82393817031099558790e+01
  -8.84565198541921517972e+01
  -8.86423440865513470044e+01
  -8.88027019433188797848e+01
  -8.89419923328286188280e+01
  -8.90636078964614767983e+01
  -8.91702234420782531288e+01
  -8.92639890676571212680e+01
  -8.93466625555698641392e+01
  -8.94197021046566362656e+01
  -8.94843325958670590126e+01
  -8.95415938568051359425e+01
</dep>
<dep Pr1.v acfrequency>
  +2.18019568663214076366e-10+j1.47654857426243290018e-05
  +2.75109496636168440645e-10+j1.65864250729261547437e-05
  +3.47148817002764508833e-10+j1.86319300184975112733e-05
  +4.38052130209567788817e-10+j2.09296949305619908429e-05
  +5.52759106786850853406e-10+j2.35108295452214518780e-05
  +6.97502899950196504363e-10+j2.64102801849125631340e-05
  +8.80148862272234117256e-10+j2.96673029051355197268e-05
  +1.11062194322996699239e-09+j3.33259949929770723717e-05
  +1.40144601213265211450e-09+j3.74358920142041630918e-05
  +1.76842440650645973713e-09+j4.20526384934893793384e-05
  +2.23149868629679403355e-09+j4.72387413097035476373e-05
  +2.81583225637626930702e-09+j5.30644160087336856971e-05
  +3.55317775367783198092e-09+j5.96085374952024421623e-05
  +4.48360251290273674582e-09+j6.69597079789364019219e-05
  +5.65766581507250076303e-09+j7.52174566413592147899e-05
  +7.13916634154421354401e-09+j8.44935872729130174781e-05
  +9.00860903650260286371e-09+j9.49136921396331818867e-05
  +1.13675798556439183593e-08+j1.06618852592730805587e-04
  +1.43442661120199729623e-08+j1.19767549470655329763e-04
  +1.81004224317910645094e-08+j1.34537809193832250771e-04
  +2.28401609499051080530e-08+j1.51129614657967382627e-04
  +2.88210434721622516994e-08+j1.69767613637686185695e-04
  +3.63680785260902744520e-08+j1.90704161469686399224e-04
  +4.58913841625912966179e-08+j2.14222739352100399746e-04
  +5.79084767288495612316e-08+j2.40641794741319942942e-04
  +7.30723974453596715386e-08+j2.70319056126082553088e-04
  +9.22072062253715709051e-08+j3.03656380999917563292e-04
  +1.16352773215762115362e-07+j3.41105203240306062429e-04
  +1.46821304678112772341e-07+j3.83172654456780852408e-04
  +1.85268679156548777978e-07+j4.30428443333169118579e-04
  +2.33784477148174551272e-07+j4.83512587730932242441e-04
  +2.95005607502773603123e-07+j5.43144106545532232878e-04
  +3.72259722246939773679e-07+j6.10130792265049315751e-04
  +4.69746240828237233370e-07+j6.85380201177530662578e-04
  +5.92764864667841523231e-07+j7.69912016595473459868e-04
  +7.48004069819622661140e-07+j8.64871961800598170085e-04
  +9.43905366319398083513e-07+j9.71547464286987233831e-04
  +1.19112329644494908693e-06+j1.09138530211314792144e-03
  +1.50310645217110929600e-06+j1.22601149784159384540e-03
  +1.89683153692217433724e-06+j1.37725376708645787932e-03
  +2.39373108156133978380e-06+j1.54716687904480243616e-03
  +3.02086637572355825795e-06+j1.73806134819541320373e-03
  +3.81241118314662365968e-06+j1.95253595323304353186e-03
  +4.81152978586103308514e-06+j2.19351467627655095927e-03
  +6.07275606674640647947e-06+j2.46428877942092387776e-03
  +7.66501033886920774690e-06+j2.76856489656395659063e-03
  +9.67542971446865712748e-06+j3.11052022988611651805e-03
  +1.22142390964639566131e-05+j3.49486622187858073096e-03
  +1.54209577588764780443e-05+j3.92692245313505661208e-03
  +1.94723272286029171901e-05+j4.41270303295805774862e-03
  +2.45924688898105890666e-05+j4.95901846137778833795e-03
  +3.10659478355611654021e-05+j5.57359693038946869825e-03
  +3.92546531472292951903e-05+j6.26523042029874903391e-03
  +4.96197347550249301396e-05+j7.04395291274355697664e-03
  +6.27503110785325966814e-05+j7.92126085146766488465e-03
  +7.94013551803215630875e-05+j8.91039003664356905887e-03
  +1.00544201416933633164e-04+j1.00266690521077037751e-02
  +1.27434688068356685720e-04+j1.12879780505028611687e-02
  +1.61706395810656995693e-04+j1.27153547670605434478e-02
  +2.05500323276018755092e-04+j1.43338094341020818451e-02
  +2.61648648963101748688e-04+j1.61734408505921356536e-02
  +3.33940740001658492586e-04+j1.82709940502378993810e-02
  +4.27517568412579679338e-04+j2.06720777170867897610e-02
  +5.49472468533283853187e-04+j2.34343881622628771866e-02
  +7.09794198562211514636e-04+j2.66325062800686872266e-02
  +9.22898446029133887047e-04+j3.03652219568284371942e-02
  +1.21021265424417663603e-03+j3.47670539386886259803e-02
  +1.60473644028326367650e-03+j4.00270066485177503091e-02
  +2.15951646810894071216e-03+j4.64203937589170445577e-02
  +2.96440447479557472876e-03+j5.43655845264758158519e-02
  +4.18181032111462902545e-03+j6.45315642422593233052e-02
  +6.13063685934857327542e-03+j7.80580050414265286252e-02
  +9.50948864172522154159e-03+j9.70518328909770189306e-02
  +1.61003853531469648397e-02+j1.25861681796435337377e-01
  +3.16130068166575184385e-02+j1.74967495886143076245e-01
  +8.28591393527373099026e-02+j2.75669190114638973377e-01
  +4.24521394046338318429e-01+j4.94270148849080215303e-01
  +5.08776333700940441851e-01-j4.99922970033153890590e-01
  +9.19354571872913611807e-02-j2.88934817734130267031e-01
  +3.38124086984054605942e-02-j1.80746036516482022627e-01
  +1.69277011649890986311e-02-j1.29000597278686762737e-01
  +9.90298176005805462496e-03-j9.90197592014746136302e-02
  +6.34651436836341110298e-03-j7.94118135023723498156e-02
  +4.31199795977646981038e-03-j6.55240767456616163278e-02
  +3.04829456010304207514e-03-j5.51271481248385222806e-02
  +2.21623940472918945499e-03-j4.70247561145203107902e-02
  +1.64449018581259293059e-03-j4.05189565245868479892e-02
  +1.23884094901256769893e-03-j3.51753638519293407305e-02
  +9.43948844116445262738e-04-j3.07092462410938418782e-02
  +7.25523980658355680494e-04-j2.69257793872683531822e-02
  +5.61374759858165005288e-04-j2.36866970731919312954e-02
  +4.36612408480373508785e-04-j2.08907103298364288380e-02
  +3.40943960890119064731e-04-j1.84615199294546616926e-02
  +2.67073964899753517419e-04-j1.63402153106079438272e-02
  +2.09723305951109158067e-04-j1.44803080798044520039e-02
  +1.65005863449454727139e-04-j1.28444009792003134562e-02
  +1.30020254196435688715e-04-j1.14019011103383260258e-02
  +1.02575082809345019866e-04-j1.01274163122551490168e-02
  +8.09995057930253841479e-05-j8.99960803996966568485e-03
  +6.40097788498055484448e-05-j8.00035509199542582692e-03
</dep>
<dep V1.i acfrequency>
  -4.36039138526349684357e-12-j2.95309714852486552508e-07
  -5.50218993550957157761e-12-j3.31728501458523003819e-07
  -6.94297632669401809959e-12-j3.72638600369950147116e-07
  -8.76104260156563467769e-12-j4.18593898611239670744e-07
  -1.10551821242000098894e-11-j4.70216590904428961327e-07
  -1.39500579986419121011e-11-j5.28205603698251372795e-07
  -1.76029772487944947338e-11-j5.93346058102710576647e-07
  -2.22124388701082832406e-11-j6.66519899859541472845e-07
  -2.80289202572641299244e-11-j7.48717840284083571002e-07
  -3.53684881478285905329e-11-j8.41052769869787603710e-07
  -4.46299737100935805776e-11-j9.44774826194070910395e-07
  -5.63166450855372748341e-11-j1.06128832017467374782e-06
  -7.10635550988405498294e-11-j1.19217074990404893642e-06
  -8.96720502545426351200e-11-j1.33919415957872839419e-06
  -1.13153316312078681773e-10-j1.50434913282718386381e-06
  -1.42783326824261354180e-10-j1.68987174545826071379e-06
  -1.80172180734642031828e-10-j1.89827384279266368008e-06
  -2.27351597148246617708e-10-j2.13237705185461599316e-06
  -2.86885322239276937932e-10-j2.39535098941310723900e-06
  -3.62008448606026077020e-10-j2.69075618387664449027e-06
  -4.56803218966773077930e-10-j3.02259229315934677162e-06
  -5.76420869417744577715e-10-j3.39535227275372232476e-06
  -7.27361570489867239089e-10-j3.81408322939372767955e-06
  -9.17827683230741474910e-10-j4.28445478704200670742e-06
  -1.15816953459430455326e-09-j4.81283589482639909601e-06
  -1.46144794888942867660e-09-j5.40638112252165068907e-06
  -1.84414412448272019967e-09-j6.07312761999835268886e-06
  -2.32705546431156734231e-09-j6.82210406480612273935e-06
  -2.93642609359902160672e-09-j7.66345308913561670935e-06
  -3.70537358309397376899e-09-j8.60856886666338135515e-06
  -4.67568954298888523863e-09-j9.67025175461864796591e-06
  -5.90011215006905724670e-09-j1.08628821309106425569e-05
  -7.44519444494555152087e-09-j1.22026158453009868571e-05
  -9.39492481655365912371e-09-j1.37076040235506075595e-05
  -1.18552972933658689679e-08-j1.53982403319094712302e-05
  -1.49600813963780829118e-08-j1.72974392360119696359e-05
  -1.88781073263963075918e-08-j1.94309492857397457608e-05
  -2.38224659288662850757e-08-j2.18277060422629536854e-05
  -3.00621290433759016575e-08-j2.45202299568318788053e-05
  -3.79366307384743777716e-08-j2.75450753417291642272e-05
  -4.78746216312344941468e-08-j3.09433375808960424891e-05
  -6.04173275144903658078e-08-j3.47612269639082741035e-05
  -7.62482236629339729713e-08-j3.90507190646608695530e-05
  -9.62305957171900192272e-08-j4.38702935255310075302e-05
  -1.21455121334922267063e-07-j4.92857755884184808078e-05
  -1.53300206777393718999e-07-j5.53712979312791301863e-05
  -1.93508594289418795508e-07-j6.22104045977223390346e-05
  -2.44284781929291380358e-07-j6.98973244375716146193e-05
  -3.08419155177489093886e-07-j7.85384490627011403732e-05
  -3.89446544572098698570e-07-j8.82540606591611376253e-05
  -4.91849377796236345288e-07-j9.91803692275557521223e-05
  -6.21318956711236445524e-07-j1.11471938607789354992e-04
  -7.85093062944611077625e-07-j1.25304608405975005615e-04
  -9.92394695100512045204e-07-j1.40879058254871146038e-04
  -1.25500622157069402269e-06-j1.58425217029353325882e-04
  -1.58802710360642904252e-06-j1.78207800732871389851e-04
  -2.01088402833865961898e-06-j2.00533381042154100439e-04
  -2.54869376136714936756e-06-j2.25759561010057248310e-04
  -3.23412791621310769273e-06-j2.54307095341210894976e-04
  -4.11000646552040908480e-06-j2.86676188682041756164e-04
  -5.23297297926213472036e-06-j3.23468817011842769450e-04
  -6.67881480003323060093e-06-j3.65419881004757881367e-04
  -8.55035136825155279365e-06-j4.13441554341735777872e-04
  -1.09894493706656488067e-05-j4.68687763245257489522e-04
  -1.41958839712442126067e-05-j5.32650125601373666470e-04
  -1.84579689205827705758e-05-j6.07304439136568713527e-04
  -2.42042530848835427495e-05-j6.95341078773772480574e-04
  -3.20947288056651518283e-05-j8.00540132970355188327e-04
  -4.31903293621787706040e-05-j9.28407875178340839112e-04
  -5.92880894959114943042e-05-j1.08731169052951625632e-03
  -8.36362064222924910624e-05-j1.29063128484518648345e-03
  -1.22612737186971457919e-04-j1.56116010082853065924e-03
  -1.90189772834504594546e-04-j1.94103665781954052606e-03
  -3.22007707062939361846e-04-j2.51723363592870662611e-03
  -6.32260136333150546580e-04-j3.49934991772286180245e-03
  -1.65718278705474656234e-03-j5.51338380229278099409e-03
  -8.49042788092676560530e-03-j9.88540297698160472240e-03
  -1.01755266740188102248e-02+j9.99845940066307857508e-03
  -1.83870914374582731035e-03+j5.77869635468260516714e-03
  -6.76248173968109185863e-04+j3.61492073032964071275e-03
  -3.38554023299782050685e-04+j2.58001194557373530677e-03
  -1.98059635201161088162e-04+j1.98039518402949154402e-03
  -1.26930287367268225312e-04+j1.58823627004744602487e-03
  -8.62399591955293994602e-05+j1.31048153491323225717e-03
  -6.09658912020608417738e-05+j1.10254296249677106144e-03
  -4.43247880945837985866e-05+j9.40495122290406493359e-04
  -3.28898037162518594250e-05+j8.10379130491736300590e-04
  -2.47768189802513539785e-05+j7.03507277038586541391e-04
  -1.88789768823289026798e-05+j6.14184924821876022244e-04
  -1.45104796131671135421e-05+j5.38515587745367826922e-04
  -1.12274951971632985472e-05+j4.73733941463838690959e-04
  -8.73224816960746719413e-06+j4.17814206596727973943e-04
  -6.81887921780238197224e-06+j3.69230398589094090372e-04
  -5.34147929799506994181e-06+j3.26804306212161459113e-04
  -4.19446611902218278865e-06+j2.89606161596087671815e-04
  -3.30011726898909384822e-06+j2.56888019584005950369e-04
  -2.60040508392871321525e-06+j2.28038022206764978781e-04
  -2.05150165618690061756e-06+j2.02548326245101557863e-04
  -1.61999011586050753049e-06+j1.79992160799393894829e-04
  -1.28019557699611104513e-06+j1.60007101839907615566e-04
</dep>
<dep _net2.v acfrequency>
  -1.83368370456221557296e-08+j1.47654860165957991733e-05
  -2.31384641488261513226e-08+j1.65864254612736408299e-05
  -2.91974304237066405438e-08+j1.86319305689700443623e-05
  -3.68429788270029745554e-08+j2.09296957108425923943e-05
  -4.64905668682237824339e-08+j2.35108306512490714934e-05
  -5.86644425066003641350e-08+j2.64102817526781778648e-05
  -7.40261316918598756236e-08+j2.96673051274028355033e-05
  -9.34103855910950412046e-08+j3.33259981429837018785e-05
  -1.17870540856801483161e-07+j3.74358964792573885218e-05
  -1.48735757826361645369e-07+j4.20526448225873577397e-05
  -1.87683246991171557397e-07+j4.72387502810371113669e-05
  -2.36829408550110927920e-07+j5.30644287253684851860e-05
  -2.98844837605338995657e-07+j5.96085555207059359685e-05
  -3.77099444453996798685e-07+j6.69597335296259093314e-05
  -4.75845576007974241413e-07+j7.52174928588086237711e-05
  -6.00449089279055729890e-07+j8.44936386102246978456e-05
  -7.57680933936347742842e-07+j9.49137649089690812847e-05
  -9.56085089065834848183e-07+j1.06618955741425455817e-04
  -1.20644284884029776809e-06+j1.19767695681338620151e-04
  -1.52235868798379296422e-06+j1.34538016443829877653e-04
  -1.92099954550219593477e-06+j1.51129908429719885194e-04
  -2.42402770354045213845e-06+j1.69768030051976577879e-04
  -3.05877796065037511986e-06+j1.90704751726937922441e-04
  -3.85974307773165346348e-06+j2.14223576027852138318e-04
  -4.87044823284352499895e-06+j2.40642980709992305001e-04
  -6.14581637005698707852e-06+j2.70320737210347184724e-04
  -7.75515301901589269656e-06+j3.03658763901143728594e-04
  -9.78591284982992468404e-06+j3.41108580955026992592e-04
  -1.23484527489530413727e-05+j3.83177442304811057081e-04
  -1.55820298751957019966e-05+j4.30435230028198916562e-04
  -1.96623709125212127588e-05+j4.83522207774759592725e-04
  -2.48112242825918070195e-05+j5.43157742850357348578e-04
  -3.13084151013521687660e-05+j6.10150121627474426728e-04
  -3.95070590881531526076e-05+j6.85407600501280176754e-04
  -4.98527639712351402427e-05+j7.69950855237329888359e-04
  -6.29078646931728575160e-05+j8.64927016017876188272e-04
  -7.93820139759585129743e-05+j9.71625504803903588744e-04
  -1.00170797894233863288e-04+j1.09149592715589746454e-03
