<Qucs Dataset 0.0.19>
<indep time 100>
  +0.00000000000000000000e+00
  +2.02020202020202020027e-04
  +4.04040404040404040054e-04
  +6.06060606060606060080e-04
  +8.08080808080808080107e-04
  +1.01010101010101010013e-03
  +1.21212121212121212016e-03
  +1.41414141414141414019e-03
  +1.61616161616161616021e-03
  +1.81818181818181818024e-03
  +2.02020202020202020027e-03
  +2.22222222222222222029e-03
  +2.42424242424242424032e-03
  +2.62626262626262626035e-03
  +2.82828282828282828038e-03
  +3.03030303030303030040e-03
  +3.23232323232323232043e-03
  +3.43434343434343434046e-03
  +3.63636363636363636048e-03
  +3.83838383838383838051e-03
  +4.04040404040404040054e-03
  +4.24242424242424198688e-03
  +4.44444444444444444059e-03
  +4.64646464646464689430e-03
  +4.84848484848484848064e-03
  +5.05050505050505006699e-03
  +5.25252525252525252070e-03
  +5.45454545454545497440e-03
  +5.65656565656565656075e-03
  +5.85858585858585814710e-03
  +6.06060606060606060080e-03
  +6.26262626262626305451e-03
  +6.46464646464646464086e-03
  +6.66666666666666622720e-03
  +6.86868686868686868091e-03
  +7.07070707070707113462e-03
  +7.27272727272727272096e-03
  +7.47474747474747430731e-03
  +7.67676767676767676102e-03
  +7.87878787878787921473e-03
  +8.08080808080808080107e-03
  +8.28282828282828238742e-03
  +8.48484848484848397376e-03
  +8.68686868686868729483e-03
  +8.88888888888888888118e-03
  +9.09090909090909046752e-03
  +9.29292929292929378859e-03
  +9.49494949494949537494e-03
  +9.69696969696969696129e-03
  +9.89898989898989854763e-03
  +1.01010101010101001340e-02
  +1.03030303030303034550e-02
  +1.05050505050505050414e-02
  +1.07070707070707066277e-02
  +1.09090909090909099488e-02
  +1.11111111111111115352e-02
  +1.13131313131313131215e-02
  +1.15151515151515147078e-02
  +1.17171717171717162942e-02
  +1.19191919191919196153e-02
  +1.21212121212121212016e-02
  +1.23232323232323227880e-02
  +1.25252525252525261090e-02
  +1.27272727272727276954e-02
  +1.29292929292929292817e-02
  +1.31313131313131308681e-02
  +1.33333333333333324544e-02
  +1.35353535353535357755e-02
  +1.37373737373737373618e-02
  +1.39393939393939389482e-02
  +1.41414141414141422692e-02
  +1.43434343434343438556e-02
  +1.45454545454545454419e-02
  +1.47474747474747470283e-02
  +1.49494949494949486146e-02
  +1.51515151515151519357e-02
  +1.53535353535353535220e-02
  +1.55555555555555551084e-02
  +1.57575757575757584295e-02
  +1.59595959595959582811e-02
  +1.61616161616161616021e-02
  +1.63636363636363649232e-02
  +1.65656565656565647748e-02
  +1.67676767676767680959e-02
  +1.69696969696969679475e-02
  +1.71717171717171712686e-02
  +1.73737373737373745897e-02
  +1.75757575757575744413e-02
  +1.77777777777777777624e-02
  +1.79797979797979810834e-02
  +1.81818181818181809350e-02
  +1.83838383838383842561e-02
  +1.85858585858585875772e-02
  +1.87878787878787874288e-02
  +1.89898989898989907499e-02
  +1.91919191919191906015e-02
  +1.93939393939393939226e-02
  +1.95959595959595972436e-02
  +1.97979797979797970953e-02
  +2.00000000000000004163e-02
</indep>
<dep Pr2.Vt time>
  +0.00000000000000000000e+00
  -1.01859528269895394104e+00
  -2.25604073094945123401e+00
  -3.30586479592282422857e+00
  -4.07518470095666529573e+00
  -4.50101276433681807276e+00
  -4.54912891549655462597e+00
  -4.21568449087269847553e+00
  -3.52741971519089991816e+00
  -2.54028935179848147641e+00
  -1.33875716942141731458e+00
  -8.88012725896970833706e-02
  +2.05857059524440222376e-02
  +1.57709433195147852302e-02
  +1.20150139419876733626e-02
  +8.39095784589471982429e-03
  +4.69239335448046190891e-03
  +8.89076945546296570910e-04
  -2.99364248483047212801e-03
  -6.92827961062270070158e-03
  -1.09441886352437123264e-02
  -1.52798348513283333006e-02
  -2.11440946607730495543e-02
  -3.78786057719940449928e-01
  -1.65339363059396649014e+00
  -2.81099790655639969472e+00
  -3.73017667594527457808e+00
  -4.33387142638597389066e+00
  -4.57324870641834202445e+00
  -4.42913789126357482218e+00
  -3.91306887441828843421e+00
  -3.06662710226087931176e+00
  -1.95978018953006394298e+00
  -6.96024730365374599828e-01
  +2.47258904946850988082e-02
  +1.79116971028607796512e-02
  +1.38518046327654742456e-02
  +1.02082241102042226011e-02
  +6.55641126508260674299e-03
  +2.80351604976031287819e-03
  -1.04437289258046961393e-03
  -4.95492785012646708154e-03
  -8.91894337062426600937e-03
  -1.30368629382000000838e-02
  -1.78258668688111576728e-02
  -2.68167794008914855963e-02
  -1.01859411682892120332e+00
  -2.25604172249432988195e+00
  -3.30586550233109432995e+00
  -4.07518525946849585750e+00
  -4.50101325911037086769e+00
  -4.54912939513732528241e+00
  -4.21568499809987962124e+00
  -3.52742030916313042965e+00
  -2.54028977168723724134e+00
  -1.33875828697640519849e+00
  -8.87713007872882042815e-02
  +2.05896914726311774935e-02
  +1.57693086996151254908e-02
  +1.20145181924478094970e-02
  +8.39083856011590967228e-03
  +4.69235818128366233282e-03
  +8.89012116893517223559e-04
  -2.99362314462991996322e-03
  -6.92816350980141049121e-03
  -1.09431103060124712556e-02
  -1.52744979011953108117e-02
  -2.11096147888879259735e-02
  -3.78789261104415408976e-01
  -1.65339332299889152367e+00
  -2.81099890287988474213e+00
  -3.73017645586502677446e+00
  -4.33387126190298488382e+00
  -4.57324856197964990656e+00
  -4.42913774606982002524e+00
  -3.91306871243332210497e+00
  -3.06662689051277492780e+00
  -1.95977978824650822531e+00
  -6.96020268619105264563e-01
  +2.47251758664675524990e-02
  +1.79164462844667582431e-02
  +1.38476418813417434528e-02
  +1.02043618342979036662e-02
  +6.55436219269933673104e-03
  +2.80242675026265430915e-03
  -1.04475127074321605392e-03
  -4.95432489541597353977e-03
  -8.91849446551384872350e-03
  -1.30397515696601962176e-02
  -1.78300668161255337907e-02
  -2.68233721841451486223e-02
  -1.01859569181336806487e+00
  -2.25604282320714988330e+00
  -3.30586464742002172912e+00
  -4.07518568885816900860e+00
  -4.50101264573445636330e+00
  -4.54912977322637246402e+00
  -4.21568436077783825766e+00
  -3.52742079167793542993e+00
  -2.54028916518494263244e+00
</dep>
<dep V1.It time>
  +0.00000000000000000000e+00
  -1.01859528276055079108e-06
  -2.25604073382570712857e-06
  -3.30586479392571770859e-06
  -4.07518470549564330190e-06
  -4.50101276107296320497e-06
  -4.54912890978759488348e-06
  -4.21568448968706748522e-06
  -3.52741971133222953689e-06
  -2.54028935426134204077e-06
  -1.33875716744400021706e-06
  -8.88012726127026021447e-08
  +2.05857047920513981949e-08
  +1.57709429822687725478e-08
  +1.20150121207021809964e-08
  +8.39096012945778032113e-09
  +4.69239308801146161055e-09
  +8.89079919014432343039e-10
  -2.99364509090042015921e-09
  -6.92827980726667158717e-09
  -1.09441899681649230721e-08
  -1.52798324641320421521e-08
  -2.11440954817325727445e-08
  -3.78786057237135829796e-07
  -1.65339363315110644997e-06
  -2.81099791015088886143e-06
  -3.73017667423497897616e-06
  -4.33387142222962047969e-06
  -4.57324870434827979393e-06
  -4.42913789596451684877e-06
  -3.91306887611228441313e-06
  -3.06662710465271729757e-06
  -1.95978018840239653794e-06
  -6.96024729636646702181e-07
  +2.47258902723815897491e-08
  +1.79116961535027228793e-08
  +1.38518050666202460217e-08
  +1.02082263775348669647e-08
  +6.55641547442612421195e-09
  +2.80350965519816329967e-09
  -1.04437451947665591300e-09
  -4.95492635383097703898e-09
  -8.91894624319593544167e-09
  -1.30368647454325223414e-08
  -1.78258672708776930430e-08
  -2.68167794008914826631e-08
  -1.01859411649404649105e-06
  -2.25604172111532832011e-06
  -3.30586549848345122405e-06
  -4.07518525769731453166e-06
  -4.50101325515911438867e-06
  -4.54912938740356564342e-06
  -4.21568500372549478765e-06
  -3.52742030887420266331e-06
  -2.54028977311493275109e-06
  -1.33875828718059990314e-06
  -8.87713007413360047427e-08
  +2.05896909803038355204e-08
  +1.57693101991753307790e-08
  +1.20145199571081999650e-08
  +8.39083516041004490306e-09
  +4.69235801679802808869e-09
  +8.89016736968576255262e-10
  -2.99362332001235120402e-09
  -6.92815783933543656493e-09
  -1.09431108221274979873e-08
  -1.52744958134306942485e-08
  -2.11096140624729029221e-08
  -3.78789260629519897243e-07
  -1.65339332604676898256e-06
  -2.81099890256740227699e-06
  -3.73017645761081104874e-06
  -4.33387126230538106720e-06
  -4.57324855850300274939e-06
  -4.42913774750349025476e-06
  -3.91306870833519407631e-06
  -3.06662689068300493717e-06
  -1.95977978780694913624e-06
  -6.96020267793899864775e-07
  +2.47251757486404197933e-08
  +1.79164484970485588137e-08
  +1.38476375856423477867e-08
  +1.02043640093624852680e-08
  +6.55435469418748461983e-09
  +2.80242641685121704249e-09
  -1.04474964882713443443e-09
  -4.95432576984160253166e-09
  -8.91849019526985528932e-09
  -1.30397522530998784420e-08
  -1.78300652439383244855e-08
  -2.68233721841451389265e-08
  -1.01859569254196123851e-06
  -2.25604282145261066556e-06
  -3.30586464529224113574e-06
  -4.07518568992471310486e-06
  -4.50101264188473288829e-06
  -4.54912977286119215399e-06
  -4.21568436693653846492e-06
  -3.52742079048856915736e-06
  -2.54028916586445729510e-06
</dep>
<dep _net1.Vt time>
  +0.00000000000000000000e+00
  +1.37818677908499576112e+00
  +2.64959632116602428198e+00
  +3.71572412738697099854e+00
  +4.49397023149583496604e+00
  +4.92403876506103976851e+00
  +4.97260947684136667135e+00
  +4.63591927283393712145e+00
  +3.94005376803360984894e+00
  +2.93892626146236635165e+00
  +1.71010071662834439721e+00
  +3.48782368720625401970e-01
  -1.03955845408879765657e+00
  -2.34735781392945419555e+00
  -3.47329185229498671461e+00
  -4.33012701892219453725e+00
  -4.85147863137998225369e+00
  -4.99695413509547847752e+00
  -4.75528258147576821102e+00
  -4.14518786277520767669e+00
  -3.21393804843269803584e+00
  -2.03368321537900476059e+00
  -6.95865504800324941037e-01
  +6.95865504800331380331e-01
  +2.03368321537900254015e+00
  +3.21393804843269625948e+00
  +4.14518786277520945305e+00
  +4.75528258147576909920e+00
  +4.99695413509547847752e+00
  +4.85147863137998403005e+00
  +4.33012701892219098454e+00
  +3.47329185229498182963e+00
  +2.34735781392945463963e+00
  +1.03955845408879543612e+00
  -3.48782368720629620817e-01
  -1.71010071662834839401e+00
  -2.93892626146236413121e+00
  -3.94005376803360940485e+00
  -4.63591927283393800963e+00
  -4.97260947684136667135e+00
  -4.92403876506104065669e+00
  -4.49397023149583585422e+00
  -3.71572412738697677170e+00
  -2.64959632116602250562e+00
  -1.37818677908499154228e+00
  -2.44929359829470651296e-15
  +1.37818677908500397677e+00
  +2.64959632116602605834e+00
  +3.71572412738697366308e+00
  +4.49397023149583318968e+00
  +4.92403876506103976851e+00
  +4.97260947684136667135e+00
  +4.63591927283393623327e+00
  +3.94005376803361295757e+00
  +2.93892626146236146667e+00
  +1.71010071662833640360e+00
  +3.48782368720625624015e-01
  -1.03955845408879943292e+00
  -2.34735781392944220514e+00
  -3.47329185229499115550e+00
  -4.33012701892219720179e+00
  -4.85147863137998047733e+00
  -4.99695413509547847752e+00
  -4.75528258147576909920e+00
  -4.14518786277520945305e+00
  -3.21393804843269625948e+00
  -2.03368321537899898743e+00
  -6.95865504800322831613e-01
  +6.95865504800333489754e-01
  +2.03368321537899232609e+00
  +3.21393804843270380900e+00
  +4.14518786277521567030e+00
  +4.75528258147576643466e+00
  +4.99695413509547847752e+00
  +4.85147863137998225369e+00
  +4.33012701892219276090e+00
  +3.47329185229498405008e+00
  +2.34735781392944886647e+00
  +1.03955845408878921887e+00
  -3.48782368720618241031e-01
  -1.71010071662833773587e+00
  -2.93892626146237612161e+00
  -3.94005376803360851667e+00
  -4.63591927283393623327e+00
  -4.97260947684136489499e+00
  -4.92403876506103976851e+00
  -4.49397023149583318968e+00
  -3.71572412738697810397e+00
  -2.64959632116601717655e+00
  -1.37818677908498554707e+00
  -4.89858719658941302591e-15
  +1.37818677908499309659e+00
  +2.64959632116603893692e+00
  +3.71572412738697188672e+00
  +4.49397023149583674240e+00
  +4.92403876506103799215e+00
  +4.97260947684136578317e+00
  +4.63591927283393356873e+00
  +3.94005376803361384574e+00
  +2.93892626146235569351e+00
</dep>
<dep _net0.Vt time>
  +0.00000000000000000000e+00
  +1.01859528269895394104e+00
  +2.25604073094945123401e+00
  +3.30586479592282422857e+00
  +4.07518470095666529573e+00
  +4.50101276433681807276e+00
  +4.54912891549655462597e+00
  +4.21568449087269847553e+00
  +3.52741971519089991816e+00
  +2.54028935179848147641e+00
  +1.33875716942141731458e+00
  +8.88012725896970833706e-02
  -2.05857059524440222376e-02
  -1.57709433195147852302e-02
  -1.20150139419876733626e-02
  -8.39095784589471982429e-03
  -4.69239335448046190891e-03
  -8.89076945546296570910e-04
  +2.99364248483047212801e-03
  +6.92827961062270070158e-03
  +1.09441886352437123264e-02
  +1.52798348513283333006e-02
  +2.11440946607730495543e-02
  +3.78786057719940449928e-01
  +1.65339363059396649014e+00
  +2.81099790655639969472e+00
  +3.73017667594527457808e+00
  +4.33387142638597389066e+00
  +4.57324870641834202445e+00
  +4.42913789126357482218e+00
  +3.91306887441828843421e+00
  +3.06662710226087931176e+00
  +1.95978018953006394298e+00
  +6.96024730365374599828e-01
  -2.47258904946850988082e-02
  -1.79116971028607796512e-02
  -1.38518046327654742456e-02
  -1.02082241102042226011e-02
  -6.55641126508260674299e-03
  -2.80351604976031287819e-03
  +1.04437289258046961393e-03
  +4.95492785012646708154e-03
  +8.91894337062426600937e-03
  +1.30368629382000000838e-02
  +1.78258668688111576728e-02
  +2.68167794008914855963e-02
  +1.01859411682892120332e+00
  +2.25604172249432988195e+00
  +3.30586550233109432995e+00
  +4.07518525946849585750e+00
  +4.50101325911037086769e+00
  +4.54912939513732528241e+00
  +4.21568499809987962124e+00
  +3.52742030916313042965e+00
  +2.54028977168723724134e+00
  +1.33875828697640519849e+00
  +8.87713007872882042815e-02
  -2.05896914726311774935e-02
  -1.57693086996151254908e-02
  -1.20145181924478094970e-02
  -8.39083856011590967228e-03
  -4.69235818128366233282e-03
  -8.89012116893517223559e-04
  +2.99362314462991996322e-03
  +6.92816350980141049121e-03
  +1.09431103060124712556e-02
  +1.52744979011953108117e-02
  +2.11096147888879259735e-02
  +3.78789261104415408976e-01
  +1.65339332299889152367e+00
  +2.81099890287988474213e+00
  +3.73017645586502677446e+00
  +4.33387126190298488382e+00
  +4.57324856197964990656e+00
  +4.42913774606982002524e+00
  +3.91306871243332210497e+00
  +3.06662689051277492780e+00
  +1.95977978824650822531e+00
  +6.96020268619105264563e-01
  -2.47251758664675524990e-02
  -1.79164462844667582431e-02
  -1.38476418813417434528e-02
  -1.02043618342979036662e-02
  -6.55436219269933673104e-03
  -2.80242675026265430915e-03
  +1.04475127074321605392e-03
  +4.95432489541597353977e-03
  +8.91849446551384872350e-03
  +1.30397515696601962176e-02
  +1.78300668161255337907e-02
  +2.68233721841451486223e-02
  +1.01859569181336806487e+00
  +2.25604282320714988330e+00
  +3.30586464742002172912e+00
  +4.07518568885816900860e+00
  +4.50101264573445636330e+00
  +4.54912977322637246402e+00
  +4.21568436077783825766e+00
  +3.52742079167793542993e+00
  +2.54028916518494263244e+00
</dep>
